(1732187759.863205) can0 7D1#5101FF
(1732187760.266332) can0 7D6#110C08CFC7B000F3
(1732187760.268040) can0 7D6#204832119FB82ACB
(1732187760.269218) can0 7D6#2117C93F6C6B121B
(1732187760.270418) can0 7D6#221A15CA2B156475
(1732187760.271565) can0 7D6#236C6A00542474CD
(1732187760.272757) can0 7D6#249917FF29320669
(1732187760.273988) can0 7D6#25D96886E840E10A
(1732187760.275136) can0 7D6#26560D17F09255F3
(1732187760.276299) can0 7D6#277F57676FDA443F
(1732187760.277445) can0 7D6#28BC42F831453E21
(1732187760.278647) can0 7D6#29098214BE111A6C
(1732187760.279803) can0 7D6#2AB33511564F7909
(1732187760.280908) can0 7D6#2B9649CE353E0A50
(1732187760.282061) can0 7D6#2CCD9BA6C474BE23
(1732187760.283217) can0 7D6#2DE6A92A226FF940
(1732187760.284367) can0 7D6#2E72E05A4FCC3739
(1732187760.285461) can0 7D6#2FEF0211DBDC71A7
(1732187760.286674) can0 7D6#20355CAE023EAF48
(1732187760.287776) can0 7D6#215E30E762A930DF
(1732187760.288953) can0 7D6#22EC9819199B332F
(1732187760.290049) can0 7D6#23D039467FDA54F7
(1732187760.291183) can0 7D6#24E86E07763F4B6B
(1732187760.292288) can0 7D6#25EA1EC77A508C7B
(1732187760.293452) can0 7D6#26BAE7D554B58871
(1732187760.294612) can0 7D6#276886D57CE749A7
(1732187760.295811) can0 7D6#28303A7D6245AD92
(1732187760.297033) can0 7D6#2924380151ED295F
(1732187760.298247) can0 7D6#2AB70EE5A11C0D8E
(1732187760.299389) can0 7D6#2B6C191E52D1F0FC
(1732187760.300579) can0 7D6#2CC2C716E049BDA2
(1732187760.301880) can0 7D6#2DDA7AE787E7D1D1
(1732187760.303248) can0 7D6#2EDD8D7CA08935AB
(1732187760.304412) can0 7D6#2F93BA3851686826
(1732187760.305529) can0 7D6#202BDA53927E3F51
(1732187760.306772) can0 7D6#21AF3439A368B0E0
(1732187760.307960) can0 7D6#22199D62AA010BE4
(1732187760.309088) can0 7D6#238A90EF01DBE101
(1732187760.310285) can0 7D6#245527268295AC3D
(1732187760.311460) can0 7D6#2594EBB0
(1732187761.315505) can0 7D1#5102FF
(1732187761.617539) can0 7D6#110C08CFC7B000FB
(1732187761.618894) can0 7D6#20489641D4BB2EDF
(1732187761.620089) can0 7D6#2116D23F6D6B121B
(1732187761.621266) can0 7D6#22184B00B07D3D90
(1732187761.622506) can0 7D6#236FA8D3033D50CD
(1732187761.623693) can0 7D6#249DBCFF292A0669
(1732187761.624874) can0 7D6#25DCC586E040E10A
(1732187761.626092) can0 7D6#2650FB719CF332DD
(1732187761.627291) can0 7D6#2778571317AE46F8
(1732187761.628564) can0 7D6#284342419BE133A3
(1732187761.629749) can0 7D6#29F68274F711CC09
(1732187761.630950) can0 7D6#2A4C35938E7B052E
(1732187761.632248) can0 7D6#2B694992DD68EC03
(1732187761.633425) can0 7D6#2C329B0603412F6F
(1732187761.634686) can0 7D6#2D19A99133482B55
(1732187761.635905) can0 7D6#2E8DE0BB87074069
(1732187761.637094) can0 7D6#2F10025ADADE4EA7
(1732187761.638428) can0 7D6#20CA5CBA023FAF48
(1732187761.639648) can0 7D6#21A130E7A8325886
(1732187761.640829) can0 7D6#221398FCCACC2A0B
(1732187761.642042) can0 7D6#232F39467FDA4CF7
(1732187761.643211) can0 7D6#24176E0776374B4F
(1732187761.644422) can0 7D6#25151EC77A508C7B
(1732187761.645544) can0 7D6#2645E7D554958871
(1732187761.646728) can0 7D6#279786D57CE749A7
(1732187761.647990) can0 7D6#28CF3A1B0E24CABC
(1732187761.649319) can0 7D6#29DB38752999235F
(1732187761.650654) can0 7D6#2A480EC5A11C0D8E
(1732187761.651948) can0 7D6#2B93191E53D1E8FC
(1732187761.653208) can0 7D6#2C3DC7B5D2AA2B73
(1732187761.654517) can0 7D6#2D257AD65CE6E3BC
(1732187761.655765) can0 7D6#2E228D358B8F0970
(1732187761.657013) can0 7D6#2F6CBA39ECC43F41
(1732187761.658287) can0 7D6#20D4DA82A3A53E01
(1732187761.659552) can0 7D6#21503472A66EB0E0
(1732187761.660815) can0 7D6#22E69D62AA000BE5
(1732187761.662188) can0 7D6#237590EF5BDBE101
(1732187761.663498) can0 7D6#24AA276C8295AC3D
(1732187761.664721) can0 7D6#256BEBB0
(1732187762.670409) can0 7D1#52FF
